<Qucs Dataset 0.0.15>
<indep x 10>
  +5.00000000000e+00
  +1.00000000000e+01
  +1.50000000000e+01
  +2.00000000000e+01
  +2.50000000000e+01
  +3.00000000000e+01
  +3.50000000000e+01
  +4.00000000000e+01
  +4.50000000000e+01
  +5.00000000000e+01
</indep>
<dep V1.I x>
  -1.32666666667e+00
  -9.95000000000e-01
  -7.96000000000e-01
  -6.63333333333e-01
  -5.68571428571e-01
  -4.97500000000e-01
  -4.42222222222e-01
  -3.98000000000e-01
  -3.61818181818e-01
  -3.31666666667e-01
</dep>
<dep izeja.V x>
  +6.63333333333e+00
  +9.95000000000e+00
  +1.19400000000e+01
  +1.32666666667e+01
  +1.42142857143e+01
  +1.49250000000e+01
  +1.54777777778e+01
  +1.59200000000e+01
  +1.62818181818e+01
  +1.65833333333e+01
</dep>
<dep _net0.V x>
  +1.99000000000e+01
  +1.99000000000e+01
  +1.99000000000e+01
  +1.99000000000e+01
  +1.99000000000e+01
  +1.99000000000e+01
  +1.99000000000e+01
  +1.99000000000e+01
  +1.99000000000e+01
  +1.99000000000e+01
</dep>
